
T1B38 000:062 SEGGER J-Link V6.51a (beta) Log File (0000ms, 0049ms total)
T1B38 000:062 DLL Compiled: Aug 23 2019 16:11:09 (0000ms, 0049ms total)
T1B38 000:062 Logging started @ 2021-04-05 10:21 (0000ms, 0049ms total)
T1B38 000:062 JLINK_SetWarnOutHandler(...) (0000ms, 0049ms total)
T1B38 000:062 JLINK_OpenEx(...)
Firmware: J-Link ARM-OB STM32 compiled Aug 22 2012 19:52:04
Hardware: V7.00
S/N: 20090928
Feature(s): RDI,FlashDL,FlashBP,JFlash,GDB
TELNET listener socket opened on port 19021WEBSRV 
Starting webserver (0035ms, 0084ms total)
T1B38 000:062 WEBSRV Webserver running on local port 19080 (0035ms, 0084ms total)
T1B38 000:062   returns O.K. (0035ms, 0084ms total)
T1B38 000:097 JLINK_SetErrorOutHandler(...) (0000ms, 0084ms total)
T1B38 000:098 JLINK_ExecCommand("ProjectFile = "D:\workspace\MDK\RMdemo\LRC\MDK-ARM\JLinkSettings.ini"", ...). Ref file found at: D:\Install\Keil_v5\ARM\Segger\JLinkDevices.ref (0003ms, 0087ms total)
T1B38 000:098 XML referenced by ref file: C:\Program Files (x86)\SEGGER\JLink\JLinkDevices.xml (0003ms, 0087ms total)
T1B38 000:098 C:\Program Files (x86)\SEGGER\JLink\JLinkDevices.xml evaluated successfully. (0006ms, 0090ms total)
T1B38 000:098   returns 0x00 (0180ms, 0264ms total)
T1B38 000:278 JLINK_ExecCommand("Device = STM32F427IIHx", ...). Device "STM32F427II" selected.  returns 0x00 (0002ms, 0266ms total)
T1B38 000:280 JLINK_ExecCommand("DisableConnectionTimeout", ...).   returns 0x01 (0000ms, 0266ms total)
T1B38 000:280 JLINK_GetHardwareVersion()  returns 0x11170 (0000ms, 0266ms total)
T1B38 000:280 JLINK_GetDLLVersion()  returns 65101 (0000ms, 0266ms total)
T1B38 000:280 JLINK_GetFirmwareString(...) (0000ms, 0266ms total)
T1B38 000:280 JLINK_GetDLLVersion()  returns 65101 (0000ms, 0266ms total)
T1B38 000:280 JLINK_GetCompileDateTime() (0000ms, 0266ms total)
T1B38 000:280 JLINK_GetFirmwareString(...) (0000ms, 0266ms total)
T1B38 000:281 JLINK_GetHardwareVersion()  returns 0x11170 (0000ms, 0266ms total)
T1B38 000:281 JLINK_TIF_Select(JLINKARM_TIF_SWD)  returns 0x00 (0000ms, 0266ms total)
T1B38 000:282 JLINK_SetSpeed(5000) (0000ms, 0266ms total)
T1B38 000:282 JLINK_GetId() >0x10B TIF>Found SW-DP with ID 0x2BA01477 >0x0D TIF> >0x28 TIF> >0x0D TIF> >0x28 TIF> >0x0D TIF> >0x28 TIF> >0x0D TIF> >0x28 TIF> >0x0D TIF> >0x21 TIF> >0x0D TIF> >0x28 TIF> >0x0D TIF> >0x28 TIF> >0x0D TIF> >0x28 TIF> >0x0D TIF> >0x21 TIF> >0x0D TIF> >0x21 TIF> >0x0D TIF> >0x28 TIF> >0x0D TIF> >0x21 TIF> >0x0D TIF> >0x21 TIF> >0x0D TIF> >0x28 TIF> >0x0D TIF> >0x28 TIF> >0x0D TIF> >0x28 TIF> >0x0D TIF> >0x21 TIF> >0x0D TIF> >0x21 TIF> >0x0D TIF> >0x28 TIF> >0x0D TIF> >0x28 TIF>
 >0x0D TIF> >0x28 TIF> >0x0D TIF> >0x21 TIF> >0x0D TIF> >0x21 TIF> >0x0D TIF> >0x28 TIF> >0x0D TIF> >0x21 TIF> >0x0D TIF> >0x21 TIF> >0x0D TIF> >0x28 TIF> >0x0D TIF> >0x21 TIF> >0x0D TIF> >0x21 TIF> >0x0D TIF> >0x28 TIF> >0x0D TIF> >0x21 TIF> >0x0D TIF> >0x21 TIF> >0x10B TIF>Found SW-DP with ID 0x2BA01477 >0x0D TIF> >0x28 TIF> >0x0D TIF> >0x28 TIF> >0x0D TIF> >0x28 TIF> >0x0D TIF> >0x28 TIF> >0x0D TIF> >0x21 TIF> >0x0D TIF> >0x28 TIF>Scanning AP map to find all available APs >0x0D TIF> >0x28 TIF>
 >0x0D TIF> >0x21 TIF> >0x0D TIF> >0x21 TIF> >0x0D TIF> >0x28 TIF> >0x0D TIF> >0x21 TIF> >0x0D TIF> >0x21 TIF>AP[1]: Stopped AP scan as end of AP map has been reachedAP[0]: AHB-AP (IDR: 0x24770011)Iterating through AP map to find AHB-AP to use >0x42 TIF> >0x28 TIF> >0x0D TIF> >0x28 TIF> >0x0D TIF> >0x21 TIF> >0x0D TIF> >0x21 TIF> >0x42 TIF> >0x28 TIF> >0x0D TIF> >0x28 TIF> >0x0D TIF> >0x28 TIF> >0x0D TIF> >0x21 TIF> >0x0D TIF> >0x21 TIF>AP[0]: Core foundAP[0]: AHB-AP ROM base: 0xE00FF000 >0x0D TIF>
 >0x28 TIF> >0x0D TIF> >0x28 TIF> >0x0D TIF> >0x28 TIF> >0x0D TIF> >0x21 TIF> >0x0D TIF> >0x21 TIF>CPUID register: 0x410FC241. Implementer code: 0x41 (ARM)Found Cortex-M4 r0p1, Little endian. -- Max. mem block: 0x00002C18 -- CPU_ReadMem(4 bytes @ 0xE000EDF0) -- CPU_WriteMem(4 bytes @ 0xE000EDF0) -- CPU_ReadMem(4 bytes @ 0xE0002000)FPUnit: 6 code (BP) slots and 2 literal slots -- CPU_ReadMem(4 bytes @ 0xE000EDFC) -- CPU_WriteMem(4 bytes @ 0xE000EDFC) -- CPU_ReadMem(4 bytes @ 0xE0001000)
 -- CPU_WriteMem(4 bytes @ 0xE0001000) -- CPU_ReadMem(4 bytes @ 0xE000ED88) -- CPU_WriteMem(4 bytes @ 0xE000ED88) -- CPU_ReadMem(4 bytes @ 0xE000ED88) -- CPU_WriteMem(4 bytes @ 0xE000ED88)CoreSight components:ROMTbl[0] @ E00FF000 -- CPU_ReadMem(16 bytes @ 0xE00FF000) -- CPU_ReadMem(16 bytes @ 0xE000EFF0) -- CPU_ReadMem(16 bytes @ 0xE000EFE0)ROMTbl[0][0]: E000E000, CID: B105E00D, PID: 000BB00C SCS-M7 -- CPU_ReadMem(16 bytes @ 0xE0001FF0) -- CPU_ReadMem(16 bytes @ 0xE0001FE0)
ROMTbl[0][1]: E0001000, CID: B105E00D, PID: 003BB002 DWT -- CPU_ReadMem(16 bytes @ 0xE0002FF0) -- CPU_ReadMem(16 bytes @ 0xE0002FE0)ROMTbl[0][2]: E0002000, CID: B105E00D, PID: 002BB003 FPB -- CPU_ReadMem(16 bytes @ 0xE0000FF0) -- CPU_ReadMem(16 bytes @ 0xE0000FE0)ROMTbl[0][3]: E0000000, CID: B105E00D, PID: 003BB001 ITM -- CPU_ReadMem(16 bytes @ 0xE00FF010) -- CPU_ReadMem(16 bytes @ 0xE0040FF0) -- CPU_ReadMem(16 bytes @ 0xE0040FE0)ROMTbl[0][4]: E0040000, CID: B105900D, PID: 000BB9A1 TPIU
 -- CPU_ReadMem(16 bytes @ 0xE0041FF0) -- CPU_ReadMem(16 bytes @ 0xE0041FE0)ROMTbl[0][5]: E0041000, CID: B105900D, PID: 000BB925 ETM >0x0D TIF> >0x21 TIF>  returns 0x2BA01477 (0144ms, 0410ms total)
T1B38 000:426 JLINK_GetDLLVersion()  returns 65101 (0001ms, 0411ms total)
T1B38 000:427 JLINK_CORE_GetFound()  returns 0xE0000FF (0000ms, 0411ms total)
T1B38 000:427 JLINK_GetDebugInfo(0x100 = JLINKARM_ROM_TABLE_ADDR_INDEX) -- Value=0xE00FF000  returns 0x00 (0000ms, 0411ms total)
T1B38 000:427 JLINK_GetDebugInfo(0x100 = JLINKARM_ROM_TABLE_ADDR_INDEX) -- Value=0xE00FF000  returns 0x00 (0000ms, 0411ms total)
T1B38 000:427 JLINK_GetDebugInfo(0x101 = JLINKARM_DEBUG_INFO_ETM_ADDR_INDEX) -- Value=0xE0041000  returns 0x00 (0000ms, 0411ms total)
T1B38 000:427 JLINK_GetDebugInfo(0x102 = JLINKARM_DEBUG_INFO_MTB_ADDR_INDEX) -- Value=0x00000000  returns 0x00 (0000ms, 0411ms total)
T1B38 000:427 JLINK_GetDebugInfo(0x103 = JLINKARM_DEBUG_INFO_TPIU_ADDR_INDEX) -- Value=0xE0040000  returns 0x00 (0000ms, 0411ms total)
T1B38 000:427 JLINK_GetDebugInfo(0x104 = JLINKARM_DEBUG_INFO_ITM_ADDR_INDEX) -- Value=0xE0000000  returns 0x00 (0000ms, 0411ms total)
T1B38 000:427 JLINK_GetDebugInfo(0x105 = JLINKARM_DEBUG_INFO_DWT_ADDR_INDEX) -- Value=0xE0001000  returns 0x00 (0000ms, 0411ms total)
T1B38 000:427 JLINK_GetDebugInfo(0x106 = JLINKARM_DEBUG_INFO_FPB_ADDR_INDEX) -- Value=0xE0002000  returns 0x00 (0000ms, 0411ms total)
T1B38 000:427 JLINK_GetDebugInfo(0x107 = JLINKARM_DEBUG_INFO_NVIC_ADDR_INDEX) -- Value=0xE000E000  returns 0x00 (0000ms, 0411ms total)
T1B38 000:427 JLINK_GetDebugInfo(0x10C = JLINKARM_DEBUG_INFO_DBG_ADDR_INDEX) -- Value=0xE000EDF0  returns 0x00 (0001ms, 0412ms total)
T1B38 000:428 JLINK_ReadMemU32(0xE000EF40, 0x0001 Items, ...) -- CPU_ReadMem(4 bytes @ 0xE000EF40) - Data: 21 00 11 10  returns 1 (0000ms, 0412ms total)
T1B38 000:428 JLINK_ReadMemU32(0xE000EF44, 0x0001 Items, ...) -- CPU_ReadMem(4 bytes @ 0xE000EF44) - Data: 11 00 00 11  returns 1 (0001ms, 0413ms total)
T1B38 000:429 JLINK_ReadMemU32(0xE000ED00, 0x0001 Items, ...) -- CPU_ReadMem(4 bytes @ 0xE000ED00) - Data: 41 C2 0F 41  returns 1 (0001ms, 0414ms total)
T1B38 000:430 JLINK_SetResetType(JLINKARM_CM3_RESET_TYPE_NORMAL)  returns JLINKARM_CM3_RESET_TYPE_NORMAL (0000ms, 0414ms total)
T1B38 000:430 JLINK_Reset() -- CPU is running -- CPU_WriteMem(4 bytes @ 0xE000EDF0) -- CPU is running -- CPU_WriteMem(4 bytes @ 0xE000EDFC)Reset: Halt core after reset via DEMCR.VC_CORERESET. >0x35 TIF>Reset: Reset device via AIRCR.SYSRESETREQ. -- CPU is running -- CPU_WriteMem(4 bytes @ 0xE000ED0C) >0x0D TIF> >0x28 TIF> -- CPU_ReadMem(4 bytes @ 0xE000EDF0) -- CPU_ReadMem(4 bytes @ 0xE000EDF0) -- CPU is running -- CPU_WriteMem(4 bytes @ 0xE000EDF0) -- CPU is running -- CPU_WriteMem(4 bytes @ 0xE000EDFC)
 -- CPU_ReadMem(4 bytes @ 0xE000EDF0) -- CPU_WriteMem(4 bytes @ 0xE0002000) -- CPU_ReadMem(4 bytes @ 0xE000EDFC) -- CPU_ReadMem(4 bytes @ 0xE0001000) (0068ms, 0482ms total)
T1B38 000:499 JLINK_ReadReg(R15 (PC))  returns 0x08000280 (0000ms, 0482ms total)
T1B38 000:499 JLINK_ReadReg(XPSR)  returns 0x01000000 (0000ms, 0482ms total)
T1B38 000:499 JLINK_Halt()  returns 0x00 (0000ms, 0482ms total)
T1B38 000:499 JLINK_IsHalted()  returns TRUE (0000ms, 0482ms total)
T1B38 000:499 JLINK_ReadMemU32(0xE000EDF0, 0x0001 Items, ...) -- CPU_ReadMem(4 bytes @ 0xE000EDF0) - Data: 03 00 03 00  returns 1 (0000ms, 0482ms total)
T1B38 000:499 JLINK_WriteU32(0xE000EDF0, 0xA05F0003) -- CPU_WriteMem(4 bytes @ 0xE000EDF0)  returns 0 (0001ms, 0483ms total)
T1B38 000:500 JLINK_WriteU32(0xE000EDFC, 0x01000000) -- CPU_WriteMem(4 bytes @ 0xE000EDFC)  returns 0 (0001ms, 0484ms total)
T1B38 000:503 JLINK_GetHWStatus(...)  returns 0x00 (0000ms, 0484ms total)
T1B38 000:503 JLINK_GetNumBPUnits(Type = 0xFFFFFF00)  returns 0x06 (0000ms, 0484ms total)
T1B38 000:503 JLINK_GetNumBPUnits(Type = 0xF0)  returns 0x2000 (0000ms, 0484ms total)
T1B38 000:503 JLINK_GetNumWPUnits()  returns 0x04 (0000ms, 0484ms total)
T1B38 000:505 JLINK_GetSpeed()  returns 0xFA0 (0000ms, 0484ms total)
T1B38 000:506 JLINK_ReadMemU32(0xE000E004, 0x0001 Items, ...) -- CPU_ReadMem(4 bytes @ 0xE000E004) - Data: 02 00 00 00  returns 1 (0000ms, 0484ms total)
T1B38 000:506 JLINK_ReadMemU32(0xE000E004, 0x0001 Items, ...) -- CPU_ReadMem(4 bytes @ 0xE000E004) - Data: 02 00 00 00  returns 1 (0001ms, 0485ms total)
T1B38 000:507 JLINK_WriteMem(0xE0001000, 0x001C Bytes, ...) - Data: 01 00 00 00 00 00 00 00 00 00 00 00 00 00 00 00 ... -- CPU_WriteMem(28 bytes @ 0xE0001000)  returns 0x1C (0002ms, 0487ms total)
T1B38 000:509 JLINK_ReadMem (0xE0001000, 0x001C Bytes, ...) -- CPU_ReadMem(28 bytes @ 0xE0001000) - Data: 01 00 00 40 00 00 00 00 00 00 00 00 00 00 00 00 ...  returns 0x00 (0001ms, 0488ms total)
T1B38 000:510 JLINK_ReadReg(R15 (PC))  returns 0x08000280 (0000ms, 0488ms total)
T1B38 000:510 JLINK_ReadReg(XPSR)  returns 0x01000000 (0000ms, 0488ms total)
T1B38 000:680 JLINK_SetResetType(JLINKARM_CM3_RESET_TYPE_NORMAL)  returns JLINKARM_CM3_RESET_TYPE_NORMAL (0000ms, 0488ms total)
T1B38 000:680 JLINK_Reset() -- CPU_WriteMem(4 bytes @ 0xE000EDF0) -- CPU_WriteMem(4 bytes @ 0xE000EDFC)Reset: Halt core after reset via DEMCR.VC_CORERESET. >0x35 TIF>Reset: Reset device via AIRCR.SYSRESETREQ. -- CPU_WriteMem(4 bytes @ 0xE000ED0C) >0x0D TIF> >0x28 TIF> -- CPU_ReadMem(4 bytes @ 0xE000EDF0) -- CPU_ReadMem(4 bytes @ 0xE000EDF0) -- CPU_WriteMem(4 bytes @ 0xE000EDF0) -- CPU_WriteMem(4 bytes @ 0xE000EDFC) -- CPU_ReadMem(4 bytes @ 0xE000EDF0) -- CPU_WriteMem(4 bytes @ 0xE0002000)
 -- CPU_ReadMem(4 bytes @ 0xE000EDFC) -- CPU_ReadMem(4 bytes @ 0xE0001000) (0069ms, 0557ms total)
T1B38 000:749 JLINK_ReadReg(R15 (PC))  returns 0x08000280 (0000ms, 0557ms total)
T1B38 000:749 JLINK_ReadReg(XPSR)  returns 0x01000000 (0000ms, 0557ms total)
T1B38 000:751 JLINK_ReadMem (0x080001AC, 0x003C Bytes, ...) -- CPU_ReadMem(128 bytes @ 0x08000180) -- Updating C cache (128 bytes @ 0x08000180) -- Read from C cache (60 bytes @ 0x080001AC) - Data: DF F8 0C D0 00 F0 F2 FB 00 48 00 47 B1 56 00 08 ...  returns 0x00 (0002ms, 0559ms total)
T1B38 000:753 JLINK_ReadMem (0x080001E8, 0x003C Bytes, ...) -- CPU_ReadMem(64 bytes @ 0x08000200) -- Updating C cache (64 bytes @ 0x08000200) -- Read from C cache (60 bytes @ 0x080001E8) - Data: 08 88 4F F0 00 00 80 F3 14 88 62 B6 61 B6 BF F3 ...  returns 0x00 (0001ms, 0560ms total)
T1B38 000:754 JLINK_ReadMem (0x08000224, 0x003C Bytes, ...) -- CPU_ReadMem(64 bytes @ 0x08000240) -- Updating C cache (64 bytes @ 0x08000240) -- Read from C cache (60 bytes @ 0x08000224) - Data: 13 4B 1A 68 1E F0 10 0F 08 BF 20 ED 10 8A 20 E9 ...  returns 0x00 (0002ms, 0562ms total)
T1B38 000:756 JLINK_ReadMem (0x08000260, 0x003C Bytes, ...) -- CPU_ReadMem(64 bytes @ 0x08000280) -- Updating C cache (64 bytes @ 0x08000280) -- Read from C cache (60 bytes @ 0x08000260) - Data: 1E F0 10 0F 08 BF B0 EC 10 8A 80 F3 09 88 BF F3 ...  returns 0x00 (0001ms, 0563ms total)
T1B38 003:091 JLINK_ReadMem (0x20000000, 0x0004 Bytes, ...) -- CPU_ReadMem(64 bytes @ 0x20000000) -- Updating C cache (64 bytes @ 0x20000000) -- Read from C cache (4 bytes @ 0x20000000) - Data: 00 00 00 00  returns 0x00 (0002ms, 0565ms total)
T1B38 003:106 JLINK_ReadMem (0x20000004, 0x0004 Bytes, ...) -- Read from C cache (4 bytes @ 0x20000004) - Data: 00 00 00 00  returns 0x00 (0000ms, 0565ms total)
T1B38 003:113 JLINK_ReadMem (0x20000008, 0x0004 Bytes, ...) -- Read from C cache (4 bytes @ 0x20000008) - Data: 00 00 00 00  returns 0x00 (0000ms, 0565ms total)
T4F50 003:183 JLINK_SetBPEx(Addr = 0x080056B0, Type = 0xFFFFFFF2)  returns 0x00000001 (0000ms, 0565ms total)
T4F50 003:183 JLINK_SetBPEx(Addr = 0x0800319E, Type = 0xFFFFFFF2)  returns 0x00000002 (0000ms, 0565ms total)
T4F50 003:183 JLINK_Go() -- CPU_WriteMem(4 bytes @ 0xE0002000) -- CPU_WriteMem(4 bytes @ 0xE0002000) -- CPU_ReadMem(4 bytes @ 0xE0001000) -- CPU_WriteMem(4 bytes @ 0xE0002008) -- CPU_WriteMem(4 bytes @ 0xE000200C) -- CPU_WriteMem(4 bytes @ 0xE0002010) -- CPU_WriteMem(4 bytes @ 0xE0002014) -- CPU_WriteMem(4 bytes @ 0xE0002018) -- CPU_WriteMem(4 bytes @ 0xE000201C) -- CPU_WriteMem(4 bytes @ 0xE0001004) (0005ms, 0570ms total)
T4F50 003:288 JLINK_IsHalted()  returns TRUE (0003ms, 0573ms total)
T4F50 003:291 JLINK_Halt()  returns 0x00 (0000ms, 0570ms total)
T4F50 003:291 JLINK_IsHalted()  returns TRUE (0000ms, 0570ms total)
T4F50 003:291 JLINK_IsHalted()  returns TRUE (0000ms, 0570ms total)
T4F50 003:291 JLINK_IsHalted()  returns TRUE (0000ms, 0570ms total)
T4F50 003:291 JLINK_ReadReg(R15 (PC))  returns 0x080056B0 (0000ms, 0570ms total)
T4F50 003:291 JLINK_ReadReg(XPSR)  returns 0x61000000 (0000ms, 0570ms total)
T4F50 003:291 JLINK_ClrBPEx(BPHandle = 0x00000001)  returns 0x00 (0000ms, 0570ms total)
T4F50 003:291 JLINK_ClrBPEx(BPHandle = 0x00000002)  returns 0x00 (0000ms, 0570ms total)
T4F50 003:291 JLINK_ReadMemU32(0xE000ED30, 0x0001 Items, ...) -- CPU_ReadMem(4 bytes @ 0xE000ED30) - Data: 03 00 00 00  returns 1 (0000ms, 0570ms total)
T4F50 003:291 JLINK_ReadMemU32(0xE0001028, 0x0001 Items, ...) -- CPU_ReadMem(4 bytes @ 0xE0001028) - Data: 00 00 00 00  returns 1 (0001ms, 0571ms total)
T4F50 003:292 JLINK_ReadMemU32(0xE0001038, 0x0001 Items, ...) -- CPU_ReadMem(4 bytes @ 0xE0001038) - Data: 00 02 00 00  returns 1 (0000ms, 0571ms total)
T4F50 003:292 JLINK_ReadMemU32(0xE0001048, 0x0001 Items, ...) -- CPU_ReadMem(4 bytes @ 0xE0001048) - Data: 00 00 00 00  returns 1 (0001ms, 0572ms total)
T4F50 003:293 JLINK_ReadMemU32(0xE0001058, 0x0001 Items, ...) -- CPU_ReadMem(4 bytes @ 0xE0001058) - Data: 00 00 00 00  returns 1 (0000ms, 0572ms total)
T4F50 003:293 JLINK_ReadReg(R0)  returns 0x080056B1 (0000ms, 0572ms total)
T4F50 003:293 JLINK_ReadReg(R1)  returns 0x20005618 (0000ms, 0572ms total)
T4F50 003:293 JLINK_ReadReg(R2)  returns 0x00000000 (0000ms, 0572ms total)
T4F50 003:293 JLINK_ReadReg(R3)  returns 0x08004269 (0000ms, 0572ms total)
T4F50 003:293 JLINK_ReadReg(R4)  returns 0x08007B20 (0000ms, 0572ms total)
T4F50 003:293 JLINK_ReadReg(R5)  returns 0x08007B20 (0000ms, 0572ms total)
T4F50 003:293 JLINK_ReadReg(R6)  returns 0x00000000 (0000ms, 0572ms total)
T4F50 003:293 JLINK_ReadReg(R7)  returns 0x00000000 (0000ms, 0572ms total)
T4F50 003:293 JLINK_ReadReg(R8)  returns 0x00000000 (0000ms, 0572ms total)
T4F50 003:293 JLINK_ReadReg(R9)  returns 0x00000000 (0000ms, 0572ms total)
T4F50 003:293 JLINK_ReadReg(R10)  returns 0x00000000 (0001ms, 0573ms total)
T4F50 003:294 JLINK_ReadReg(R11)  returns 0x00000000 (0000ms, 0573ms total)
T4F50 003:294 JLINK_ReadReg(R12)  returns 0x00000000 (0000ms, 0573ms total)
T4F50 003:294 JLINK_ReadReg(R13 (SP))  returns 0x20005618 (0000ms, 0573ms total)
T4F50 003:294 JLINK_ReadReg(R14)  returns 0x080009B5 (0000ms, 0573ms total)
T4F50 003:294 JLINK_ReadReg(R15 (PC))  returns 0x080056B0 (0000ms, 0573ms total)
T4F50 003:294 JLINK_ReadReg(XPSR)  returns 0x61000000 (0000ms, 0573ms total)
T4F50 003:294 JLINK_ReadReg(MSP)  returns 0x20005618 (0000ms, 0573ms total)
T4F50 003:294 JLINK_ReadReg(PSP)  returns 0x00000000 (0000ms, 0573ms total)
T4F50 003:294 JLINK_ReadReg(CFBP)  returns 0x00000000 (0000ms, 0573ms total)
T4F50 003:294 JLINK_ReadReg(FPSCR)  returns 0x00000000 (0005ms, 0578ms total)
T4F50 003:299 JLINK_ReadReg(FPS0)  returns 0x00000000 (0000ms, 0578ms total)
T4F50 003:299 JLINK_ReadReg(FPS1)  returns 0x00000000 (0000ms, 0578ms total)
T4F50 003:299 JLINK_ReadReg(FPS2)  returns 0x00000000 (0000ms, 0578ms total)
T4F50 003:299 JLINK_ReadReg(FPS3)  returns 0x00000000 (0000ms, 0578ms total)
T4F50 003:299 JLINK_ReadReg(FPS4)  returns 0x00000000 (0000ms, 0578ms total)
T4F50 003:299 JLINK_ReadReg(FPS5)  returns 0x00000000 (0000ms, 0578ms total)
T4F50 003:299 JLINK_ReadReg(FPS6)  returns 0x00000000 (0000ms, 0578ms total)
T4F50 003:299 JLINK_ReadReg(FPS7)  returns 0x00000000 (0000ms, 0578ms total)
T4F50 003:299 JLINK_ReadReg(FPS8)  returns 0x00000000 (0000ms, 0578ms total)
T4F50 003:299 JLINK_ReadReg(FPS9)  returns 0x00000000 (0000ms, 0578ms total)
T4F50 003:299 JLINK_ReadReg(FPS10)  returns 0x00000000 (0000ms, 0578ms total)
T4F50 003:299 JLINK_ReadReg(FPS11)  returns 0x00000000 (0000ms, 0578ms total)
T4F50 003:299 JLINK_ReadReg(FPS12)  returns 0x00000000 (0000ms, 0578ms total)
T4F50 003:299 JLINK_ReadReg(FPS13)  returns 0x00000000 (0000ms, 0578ms total)
T4F50 003:299 JLINK_ReadReg(FPS14)  returns 0x00000000 (0000ms, 0578ms total)
T4F50 003:299 JLINK_ReadReg(FPS15)  returns 0x00000000 (0000ms, 0578ms total)
T4F50 003:299 JLINK_ReadReg(FPS16)  returns 0x00000000 (0000ms, 0578ms total)
T4F50 003:299 JLINK_ReadReg(FPS17)  returns 0x00000000 (0000ms, 0578ms total)
T4F50 003:299 JLINK_ReadReg(FPS18)  returns 0x00000000 (0000ms, 0578ms total)
T4F50 003:299 JLINK_ReadReg(FPS19)  returns 0x00000000 (0000ms, 0578ms total)
T4F50 003:299 JLINK_ReadReg(FPS20)  returns 0x00000000 (0000ms, 0578ms total)
T4F50 003:299 JLINK_ReadReg(FPS21)  returns 0x00000000 (0000ms, 0578ms total)
T4F50 003:299 JLINK_ReadReg(FPS22)  returns 0x00000000 (0000ms, 0578ms total)
T4F50 003:299 JLINK_ReadReg(FPS23)  returns 0x00000000 (0000ms, 0578ms total)
T4F50 003:299 JLINK_ReadReg(FPS24)  returns 0x00000000 (0000ms, 0578ms total)
T4F50 003:299 JLINK_ReadReg(FPS25)  returns 0x00000000 (0000ms, 0578ms total)
T4F50 003:299 JLINK_ReadReg(FPS26)  returns 0x00000000 (0000ms, 0578ms total)
T4F50 003:299 JLINK_ReadReg(FPS27)  returns 0x00000000 (0000ms, 0578ms total)
T4F50 003:299 JLINK_ReadReg(FPS28)  returns 0x00000000 (0000ms, 0578ms total)
T4F50 003:299 JLINK_ReadReg(FPS29)  returns 0x00000000 (0000ms, 0578ms total)
T4F50 003:299 JLINK_ReadReg(FPS30)  returns 0x00000000 (0000ms, 0578ms total)
T4F50 003:299 JLINK_ReadReg(FPS31)  returns 0x00000000 (0000ms, 0578ms total)
T1B38 003:301 JLINK_ReadMemU32(0xE0001004, 0x0001 Items, ...) -- CPU_ReadMem(4 bytes @ 0xE0001004) - Data: 62 86 00 00  returns 1 (0000ms, 0578ms total)
T1B38 003:301 JLINK_ReadMem (0x20000000, 0x0004 Bytes, ...) -- CPU_ReadMem(64 bytes @ 0x20000000) -- Updating C cache (64 bytes @ 0x20000000) -- Read from C cache (4 bytes @ 0x20000000) - Data: 00 00 00 00  returns 0x00 (0001ms, 0579ms total)
T1B38 003:302 JLINK_ReadMem (0x20000004, 0x0004 Bytes, ...) -- Read from C cache (4 bytes @ 0x20000004) - Data: 00 00 00 00  returns 0x00 (0001ms, 0580ms total)
T1B38 003:303 JLINK_ReadMem (0x20000008, 0x0004 Bytes, ...) -- Read from C cache (4 bytes @ 0x20000008) - Data: 00 00 00 00  returns 0x00 (0000ms, 0580ms total)
T1B38 003:305 JLINK_ReadMem (0x080056A6, 0x0002 Bytes, ...) -- CPU_ReadMem(64 bytes @ 0x08005680) -- Updating C cache (64 bytes @ 0x08005680) -- Read from C cache (2 bytes @ 0x080056A6) - Data: BD E8  returns 0x00 (0002ms, 0582ms total)
T1B38 003:307 JLINK_ReadMem (0x080056A8, 0x003C Bytes, ...) -- CPU_ReadMem(64 bytes @ 0x080056C0) -- Updating C cache (64 bytes @ 0x080056C0) -- Read from C cache (60 bytes @ 0x080056A8) - Data: 70 40 0A 20 FB F7 F6 BF FC F7 04 F9 FD F7 9E FD ...  returns 0x00 (0001ms, 0583ms total)
T1B38 003:333 JLINK_ReadMem (0x08002FF4, 0x000C Bytes, ...) -- CPU_ReadMem(64 bytes @ 0x08002FC0) -- Updating C cache (64 bytes @ 0x08002FC0) -- Read from C cache (12 bytes @ 0x08002FF4) - Data: 08 4D 09 4C 0A 20 95 ED 00 0A 84 ED  returns 0x00 (0001ms, 0584ms total)
T1B38 003:334 JLINK_ReadMem (0x08003000, 0x0030 Bytes, ...) -- CPU_ReadMem(64 bytes @ 0x08003000) -- Updating C cache (64 bytes @ 0x08003000) -- Read from C cache (48 bytes @ 0x08003000) - Data: 00 0A 95 ED 01 0A 84 ED 01 0A 95 ED 02 0A 84 ED ...  returns 0x00 (0001ms, 0585ms total)
T4F50 010:617 JLINK_SetBPEx(Addr = 0x0800319E, Type = 0xFFFFFFF2)  returns 0x00000003 (0000ms, 0585ms total)
T4F50 010:617 JLINK_Go() -- CPU_WriteMem(4 bytes @ 0xE0002000) -- CPU_ReadMem(4 bytes @ 0xE0001000) -- CPU_WriteMem(4 bytes @ 0xE0002008) -- CPU_WriteMem(4 bytes @ 0xE000200C) (0004ms, 0589ms total)
T4F50 010:721 JLINK_IsHalted()  returns FALSE (0000ms, 0589ms total)
T4F50 010:822 JLINK_IsHalted()  returns FALSE (0001ms, 0590ms total)
T4F50 010:923 JLINK_IsHalted()  returns FALSE (0000ms, 0589ms total)
T4F50 011:024 JLINK_IsHalted()  returns FALSE (0000ms, 0589ms total)
T4F50 011:125 JLINK_ReadMemU32(0xE0001004, 0x0001 Items, ...) -- CPU_ReadMem(4 bytes @ 0xE0001004) - Data: 9C 0F 67 05  returns 1 (0000ms, 0589ms total)
T1B38 011:125 JLINK_ReadMem (0x20000000, 0x0004 Bytes, ...) -- CPU_ReadMem(4 bytes @ 0x20000000) - Data: 00 00 00 00  returns 0x00 (0001ms, 0590ms total)
T1B38 011:126 JLINK_ReadMem (0x20000004, 0x0004 Bytes, ...) -- CPU_ReadMem(4 bytes @ 0x20000004) - Data: 00 00 00 00  returns 0x00 (0001ms, 0591ms total)
T1B38 011:127 JLINK_ReadMem (0x20000008, 0x0004 Bytes, ...) -- CPU_ReadMem(4 bytes @ 0x20000008) - Data: 00 00 00 00  returns 0x00 (0000ms, 0591ms total)
T4F50 011:127 JLINK_IsHalted()  returns FALSE (0001ms, 0592ms total)
T4F50 011:230 JLINK_IsHalted()  returns FALSE (0000ms, 0591ms total)
T4F50 011:331 JLINK_IsHalted()  returns FALSE (0000ms, 0591ms total)
T4F50 011:431 JLINK_IsHalted()  returns FALSE (0000ms, 0591ms total)
T4F50 011:532 JLINK_IsHalted()  returns FALSE (0001ms, 0592ms total)
T4F50 011:633 JLINK_IsHalted()  returns FALSE (0000ms, 0591ms total)
T4F50 011:734 JLINK_ReadMemU32(0xE0001004, 0x0001 Items, ...) - Data: 9C 0F 67 05  returns 1 (0000ms, 0591ms total)
T1B38 011:738 JLINK_ReadMem (0x20000000, 0x0004 Bytes, ...) -- CPU_ReadMem(4 bytes @ 0x20000000) - Data: 00 00 00 00  returns 0x00 (0000ms, 0591ms total)
T1B38 011:738 JLINK_ReadMem (0x20000004, 0x0004 Bytes, ...) -- CPU_ReadMem(4 bytes @ 0x20000004) - Data: 00 00 00 00  returns 0x00 (0001ms, 0592ms total)
T1B38 011:739 JLINK_ReadMem (0x20000008, 0x0004 Bytes, ...) -- CPU_ReadMem(4 bytes @ 0x20000008) - Data: 00 00 00 00  returns 0x00 (0001ms, 0593ms total)
T4F50 011:740 JLINK_IsHalted()  returns FALSE (0000ms, 0593ms total)
T4F50 011:842 JLINK_IsHalted()  returns FALSE (0000ms, 0593ms total)
T4F50 011:942 JLINK_IsHalted()  returns FALSE (0000ms, 0593ms total)
T4F50 012:043 JLINK_IsHalted()  returns FALSE (0000ms, 0593ms total)
T4F50 012:144 JLINK_IsHalted()  returns FALSE (0001ms, 0594ms total)
T4F50 012:245 JLINK_IsHalted()  returns FALSE (0000ms, 0593ms total)
T4F50 012:347 JLINK_ReadMemU32(0xE0001004, 0x0001 Items, ...) - Data: 9C 0F 67 05  returns 1 (0000ms, 0593ms total)
T1B38 012:347 JLINK_ReadMem (0x20000000, 0x0004 Bytes, ...) -- CPU_ReadMem(4 bytes @ 0x20000000) - Data: 00 00 00 00  returns 0x00 (0001ms, 0594ms total)
T1B38 012:348 JLINK_ReadMem (0x20000004, 0x0004 Bytes, ...) -- CPU_ReadMem(4 bytes @ 0x20000004) - Data: 00 00 00 00  returns 0x00 (0001ms, 0595ms total)
T1B38 012:349 JLINK_ReadMem (0x20000008, 0x0004 Bytes, ...) -- CPU_ReadMem(4 bytes @ 0x20000008) - Data: 00 00 00 00  returns 0x00 (0001ms, 0596ms total)
T4F50 012:350 JLINK_IsHalted()  returns FALSE (0000ms, 0596ms total)
T4F50 012:451 JLINK_IsHalted()  returns FALSE (0001ms, 0597ms total)
T4F50 012:552 JLINK_IsHalted()  returns FALSE (0001ms, 0597ms total)
T4F50 012:653 JLINK_IsHalted()  returns FALSE (0000ms, 0596ms total)
T4F50 012:755 JLINK_IsHalted()  returns FALSE (0000ms, 0596ms total)
T4F50 012:855 JLINK_IsHalted()  returns FALSE (0000ms, 0596ms total)
T4F50 012:956 JLINK_ReadMemU32(0xE0001004, 0x0001 Items, ...) - Data: 9C 0F 67 05  returns 1 (0000ms, 0596ms total)
T1B38 012:956 JLINK_ReadMem (0x20000000, 0x0004 Bytes, ...) -- CPU_ReadMem(4 bytes @ 0x20000000) - Data: 00 00 00 00  returns 0x00 (0001ms, 0597ms total)
T1B38 012:957 JLINK_ReadMem (0x20000004, 0x0004 Bytes, ...) -- CPU_ReadMem(4 bytes @ 0x20000004) - Data: 00 00 00 00  returns 0x00 (0000ms, 0597ms total)
T1B38 012:957 JLINK_ReadMem (0x20000008, 0x0004 Bytes, ...) -- CPU_ReadMem(4 bytes @ 0x20000008) - Data: 00 00 00 00  returns 0x00 (0001ms, 0598ms total)
T4F50 012:958 JLINK_IsHalted()  returns FALSE (0001ms, 0599ms total)
T4F50 013:060 JLINK_IsHalted()  returns FALSE (0000ms, 0598ms total)
T4F50 013:161 JLINK_IsHalted()  returns FALSE (0000ms, 0598ms total)
T4F50 013:262 JLINK_IsHalted()  returns FALSE (0000ms, 0598ms total)
T4F50 013:363 JLINK_IsHalted()  returns FALSE (0000ms, 0598ms total)
T4F50 013:464 JLINK_IsHalted()  returns FALSE (0000ms, 0598ms total)
T4F50 013:565 JLINK_ReadMemU32(0xE0001004, 0x0001 Items, ...) - Data: 9C 0F 67 05  returns 1 (0000ms, 0598ms total)
T1B38 013:565 JLINK_ReadMem (0x20000000, 0x0004 Bytes, ...) -- CPU_ReadMem(4 bytes @ 0x20000000) - Data: 00 00 00 00  returns 0x00 (0001ms, 0599ms total)
T1B38 013:566 JLINK_ReadMem (0x20000004, 0x0004 Bytes, ...) -- CPU_ReadMem(4 bytes @ 0x20000004) - Data: 00 00 00 00  returns 0x00 (0001ms, 0600ms total)
T1B38 013:567 JLINK_ReadMem (0x20000008, 0x0004 Bytes, ...) -- CPU_ReadMem(4 bytes @ 0x20000008) - Data: 00 00 00 00  returns 0x00 (0000ms, 0600ms total)
T4F50 013:568 JLINK_IsHalted()  returns FALSE (0000ms, 0600ms total)
T4F50 013:669 JLINK_IsHalted()  returns FALSE (0000ms, 0600ms total)
T4F50 013:771 JLINK_IsHalted()  returns FALSE (0000ms, 0600ms total)
T4F50 013:872 JLINK_IsHalted()  returns FALSE (0000ms, 0600ms total)
T4F50 013:974 JLINK_IsHalted()  returns FALSE (0000ms, 0600ms total)
T4F50 014:075 JLINK_IsHalted()  returns FALSE (0000ms, 0600ms total)
T4F50 014:176 JLINK_ReadMemU32(0xE0001004, 0x0001 Items, ...) - Data: 9C 0F 67 05  returns 1 (0000ms, 0600ms total)
T1B38 014:177 JLINK_ReadMem (0x20000000, 0x0004 Bytes, ...) -- CPU_ReadMem(4 bytes @ 0x20000000) - Data: 00 00 00 00  returns 0x00 (0000ms, 0600ms total)
T1B38 014:177 JLINK_ReadMem (0x20000004, 0x0004 Bytes, ...) -- CPU_ReadMem(4 bytes @ 0x20000004) - Data: 00 00 00 00  returns 0x00 (0001ms, 0601ms total)
T1B38 014:178 JLINK_ReadMem (0x20000008, 0x0004 Bytes, ...) -- CPU_ReadMem(4 bytes @ 0x20000008) - Data: 00 00 00 00  returns 0x00 (0000ms, 0601ms total)
T4F50 014:178 JLINK_IsHalted()  returns FALSE (0001ms, 0602ms total)
T4F50 014:280 JLINK_IsHalted()  returns FALSE (0000ms, 0601ms total)
T4F50 014:382 JLINK_IsHalted()  returns FALSE (0000ms, 0601ms total)
T4F50 014:483 JLINK_IsHalted()  returns FALSE (0000ms, 0601ms total)
T4F50 014:584 JLINK_IsHalted()  returns FALSE (0000ms, 0601ms total)
T4F50 014:685 JLINK_IsHalted()  returns TRUE (0003ms, 0604ms total)
T4F50 014:688 JLINK_Halt()  returns 0x00 (0000ms, 0601ms total)
T4F50 014:688 JLINK_IsHalted()  returns TRUE (0000ms, 0601ms total)
T4F50 014:688 JLINK_IsHalted()  returns TRUE (0000ms, 0601ms total)
T4F50 014:688 JLINK_IsHalted()  returns TRUE (0000ms, 0601ms total)
T4F50 014:688 JLINK_ReadReg(R15 (PC))  returns 0x0800319E (0000ms, 0601ms total)
T4F50 014:688 JLINK_ReadReg(XPSR)  returns 0x41000000 (0000ms, 0601ms total)
T4F50 014:688 JLINK_ClrBPEx(BPHandle = 0x00000003)  returns 0x00 (0000ms, 0601ms total)
T4F50 014:688 JLINK_ReadMemU32(0xE000ED30, 0x0001 Items, ...) -- CPU_ReadMem(4 bytes @ 0xE000ED30) - Data: 03 00 00 00  returns 1 (0001ms, 0602ms total)
T4F50 014:689 JLINK_ReadMemU32(0xE0001028, 0x0001 Items, ...) -- CPU_ReadMem(4 bytes @ 0xE0001028) - Data: 00 00 00 00  returns 1 (0000ms, 0602ms total)
T4F50 014:689 JLINK_ReadMemU32(0xE0001038, 0x0001 Items, ...) -- CPU_ReadMem(4 bytes @ 0xE0001038) - Data: 00 02 00 00  returns 1 (0000ms, 0602ms total)
T4F50 014:689 JLINK_ReadMemU32(0xE0001048, 0x0001 Items, ...) -- CPU_ReadMem(4 bytes @ 0xE0001048) - Data: 00 00 00 00  returns 1 (0001ms, 0603ms total)
T4F50 014:690 JLINK_ReadMemU32(0xE0001058, 0x0001 Items, ...) -- CPU_ReadMem(4 bytes @ 0xE0001058) - Data: 00 00 00 00  returns 1 (0000ms, 0603ms total)
T4F50 014:690 JLINK_ReadReg(R0)  returns 0x00000000 (0001ms, 0604ms total)
T4F50 014:691 JLINK_ReadReg(R1)  returns 0x00000180 (0000ms, 0604ms total)
T4F50 014:692 JLINK_ReadReg(R2)  returns 0x40000001 (0000ms, 0604ms total)
T4F50 014:692 JLINK_ReadReg(R3)  returns 0x00000180 (0000ms, 0604ms total)
T4F50 014:692 JLINK_ReadReg(R4)  returns 0x00000004 (0000ms, 0604ms total)
T4F50 014:692 JLINK_ReadReg(R5)  returns 0x20004E58 (0000ms, 0604ms total)
T4F50 014:692 JLINK_ReadReg(R6)  returns 0x200001EC (0000ms, 0604ms total)
T4F50 014:692 JLINK_ReadReg(R7)  returns 0x2000013C (0000ms, 0604ms total)
T4F50 014:692 JLINK_ReadReg(R8)  returns 0x20000000 (0000ms, 0604ms total)
T4F50 014:692 JLINK_ReadReg(R9)  returns 0xA5A5A5A5 (0000ms, 0604ms total)
T4F50 014:692 JLINK_ReadReg(R10)  returns 0xA5A5A5A5 (0000ms, 0604ms total)
T4F50 014:692 JLINK_ReadReg(R11)  returns 0xA5A5A5A5 (0000ms, 0604ms total)
T4F50 014:692 JLINK_ReadReg(R12)  returns 0x20004FF4 (0000ms, 0604ms total)
T4F50 014:692 JLINK_ReadReg(R13 (SP))  returns 0x20001918 (0000ms, 0604ms total)
T4F50 014:692 JLINK_ReadReg(R14)  returns 0x0800319F (0000ms, 0604ms total)
T4F50 014:692 JLINK_ReadReg(R15 (PC))  returns 0x0800319E (0000ms, 0604ms total)
T4F50 014:692 JLINK_ReadReg(XPSR)  returns 0x41000000 (0000ms, 0604ms total)
T4F50 014:692 JLINK_ReadReg(MSP)  returns 0x200055F8 (0000ms, 0604ms total)
T4F50 014:692 JLINK_ReadReg(PSP)  returns 0x20001918 (0000ms, 0604ms total)
T4F50 014:692 JLINK_ReadReg(CFBP)  returns 0x06000000 (0000ms, 0604ms total)
T4F50 014:692 JLINK_ReadReg(FPSCR)  returns 0x20000000 (0004ms, 0608ms total)
T4F50 014:696 JLINK_ReadReg(FPS0)  returns 0x00000000 (0000ms, 0608ms total)
T4F50 014:696 JLINK_ReadReg(FPS1)  returns 0x00000000 (0000ms, 0608ms total)
T4F50 014:696 JLINK_ReadReg(FPS2)  returns 0x00000000 (0000ms, 0608ms total)
T4F50 014:696 JLINK_ReadReg(FPS3)  returns 0x00000000 (0000ms, 0608ms total)
T4F50 014:696 JLINK_ReadReg(FPS4)  returns 0x00000000 (0000ms, 0608ms total)
T4F50 014:696 JLINK_ReadReg(FPS5)  returns 0xC00921FB (0000ms, 0608ms total)
T4F50 014:696 JLINK_ReadReg(FPS6)  returns 0x3F800000 (0000ms, 0608ms total)
T4F50 014:696 JLINK_ReadReg(FPS7)  returns 0x3E02E3FA (0001ms, 0609ms total)
T4F50 014:697 JLINK_ReadReg(FPS8)  returns 0x3E554430 (0000ms, 0609ms total)
T4F50 014:697 JLINK_ReadReg(FPS9)  returns 0x00000000 (0000ms, 0609ms total)
T4F50 014:697 JLINK_ReadReg(FPS10)  returns 0x00000000 (0000ms, 0609ms total)
T4F50 014:697 JLINK_ReadReg(FPS11)  returns 0x00000000 (0000ms, 0609ms total)
T4F50 014:697 JLINK_ReadReg(FPS12)  returns 0x00000000 (0000ms, 0609ms total)
T4F50 014:697 JLINK_ReadReg(FPS13)  returns 0x00000000 (0000ms, 0609ms total)
T4F50 014:697 JLINK_ReadReg(FPS14)  returns 0x00000000 (0000ms, 0609ms total)
T4F50 014:697 JLINK_ReadReg(FPS15)  returns 0x00000000 (0000ms, 0609ms total)
T4F50 014:697 JLINK_ReadReg(FPS16)  returns 0x42A03333 (0000ms, 0609ms total)
T4F50 014:697 JLINK_ReadReg(FPS17)  returns 0x40C00000 (0000ms, 0609ms total)
T4F50 014:697 JLINK_ReadReg(FPS18)  returns 0x4118C9EC (0000ms, 0609ms total)
T4F50 014:697 JLINK_ReadReg(FPS19)  returns 0x41980000 (0000ms, 0609ms total)
T4F50 014:697 JLINK_ReadReg(FPS20)  returns 0x00000000 (0000ms, 0609ms total)
T4F50 014:697 JLINK_ReadReg(FPS21)  returns 0x00000000 (0000ms, 0609ms total)
T4F50 014:697 JLINK_ReadReg(FPS22)  returns 0x00000000 (0000ms, 0609ms total)
T4F50 014:697 JLINK_ReadReg(FPS23)  returns 0x00000000 (0000ms, 0609ms total)
T4F50 014:697 JLINK_ReadReg(FPS24)  returns 0x00000000 (0000ms, 0609ms total)
T4F50 014:697 JLINK_ReadReg(FPS25)  returns 0x00000000 (0000ms, 0609ms total)
T4F50 014:697 JLINK_ReadReg(FPS26)  returns 0x00000000 (0000ms, 0609ms total)
T4F50 014:697 JLINK_ReadReg(FPS27)  returns 0x00000000 (0000ms, 0609ms total)
T4F50 014:697 JLINK_ReadReg(FPS28)  returns 0x00000000 (0000ms, 0609ms total)
T4F50 014:697 JLINK_ReadReg(FPS29)  returns 0x00000000 (0000ms, 0609ms total)
T4F50 014:697 JLINK_ReadReg(FPS30)  returns 0x00000000 (0000ms, 0609ms total)
T4F50 014:697 JLINK_ReadReg(FPS31)  returns 0x00000000 (0000ms, 0609ms total)
T1B38 014:699 JLINK_ReadMem (0x00000000, 0x0004 Bytes, ...) -- CPU_ReadMem(4 bytes @ 0x40023844) -- CPU_ReadMem(4 bytes @ 0x40013800) -- CPU_ReadMem(64 bytes @ 0x08000000) -- Updating C cache (64 bytes @ 0x08000000) -- Read from C cache (4 bytes @ 0x08000000) - Data: 18 56 00 20  returns 0x00 (0002ms, 0611ms total)
T1B38 014:702 JLINK_ReadMemU32(0xE0001004, 0x0001 Items, ...) - Data: 9C 0F 67 05  returns 1 (0000ms, 0611ms total)
T1B38 014:702 JLINK_ReadMem (0x20000000, 0x0004 Bytes, ...) -- CPU_ReadMem(64 bytes @ 0x20000000) -- Updating C cache (64 bytes @ 0x20000000) -- Read from C cache (4 bytes @ 0x20000000) - Data: 00 00 00 00  returns 0x00 (0001ms, 0612ms total)
T1B38 014:703 JLINK_ReadMem (0x20000004, 0x0004 Bytes, ...) -- Read from C cache (4 bytes @ 0x20000004) - Data: 00 00 00 00  returns 0x00 (0000ms, 0612ms total)
T1B38 014:703 JLINK_ReadMem (0x20000008, 0x0004 Bytes, ...) -- Read from C cache (4 bytes @ 0x20000008) - Data: 00 00 00 00  returns 0x00 (0000ms, 0612ms total)
T1B38 014:706 JLINK_ReadMem (0x0800315A, 0x0002 Bytes, ...) -- CPU_ReadMem(64 bytes @ 0x08003140) -- Updating C cache (64 bytes @ 0x08003140) -- Read from C cache (2 bytes @ 0x0800315A) - Data: 95 ED  returns 0x00 (0001ms, 0613ms total)
T1B38 014:707 JLINK_ReadMem (0x0800315C, 0x003C Bytes, ...) -- CPU_ReadMem(64 bytes @ 0x08003180) -- Updating C cache (64 bytes @ 0x08003180) -- Read from C cache (60 bytes @ 0x0800315C) - Data: 60 0A BD EE C0 0A 10 EE 10 0A 00 B2 00 90 95 ED ...  returns 0x00 (0001ms, 0614ms total)
T1B38 014:708 JLINK_ReadMem (0x08003198, 0x003C Bytes, ...) -- CPU_ReadMem(64 bytes @ 0x080031C0) -- Updating C cache (64 bytes @ 0x080031C0) -- Read from C cache (60 bytes @ 0x08003198) - Data: 00 68 03 F0 E5 FB 0A 20 02 F0 1A FD 86 E7 00 00 ...  returns 0x00 (0002ms, 0616ms total)
T1B38 064:011 JLINK_ReadMem (0x2000520C, 0x0004 Bytes, ...) -- CPU_ReadMem(64 bytes @ 0x20005200) -- Updating C cache (64 bytes @ 0x20005200) -- Read from C cache (4 bytes @ 0x2000520C) - Data: 00 00 00 00  returns 0x00 (0002ms, 0618ms total)
T1B38 064:013 JLINK_ReadMem (0x20005210, 0x0004 Bytes, ...) -- Read from C cache (4 bytes @ 0x20005210) - Data: 00 00 00 00  returns 0x00 (0000ms, 0618ms total)
T1B38 064:013 JLINK_ReadMem (0x20005214, 0x0004 Bytes, ...) -- Read from C cache (4 bytes @ 0x20005214) - Data: 00 00 00 00  returns 0x00 (0000ms, 0618ms total)
T4F50 077:526 JLINK_Step() -- Read from C cache (2 bytes @ 0x0800319E) -- CPU_ReadMem(4 bytes @ 0xE000ED18) -- CPU_WriteMem(4 bytes @ 0xE000ED18) -- CPU_ReadMem(4 bytes @ 0xE000ED18) -- CPU_WriteMem(4 bytes @ 0xE000ED18) -- Simulated  returns 0x00 (0003ms, 0621ms total)
T4F50 077:529 JLINK_ReadReg(R15 (PC))  returns 0x080031A0 (0000ms, 0621ms total)
T4F50 077:529 JLINK_ReadReg(XPSR)  returns 0x01000000 (0000ms, 0621ms total)
T4F50 077:529 JLINK_SetBPEx(Addr = 0x0800319E, Type = 0xFFFFFFF2)  returns 0x00000004 (0000ms, 0621ms total)
T4F50 077:530 JLINK_SetBPEx(Addr = 0x08003050, Type = 0xFFFFFFF2)  returns 0x00000005 (0000ms, 0622ms total)
T4F50 077:530 JLINK_Go() -- CPU_WriteMem(4 bytes @ 0xE0002000) -- CPU_WriteMem(4 bytes @ 0xE0002000) -- CPU_ReadMem(4 bytes @ 0xE0001000) -- CPU_WriteMem(4 bytes @ 0xE000200C) -- CPU_WriteMem(4 bytes @ 0xE0001004) (0004ms, 0626ms total)
T4F50 077:636 JLINK_IsHalted()  returns TRUE (0003ms, 0629ms total)
T4F50 077:640 JLINK_Halt()  returns 0x00 (0000ms, 0626ms total)
T4F50 077:640 JLINK_IsHalted()  returns TRUE (0000ms, 0626ms total)
T4F50 077:640 JLINK_IsHalted()  returns TRUE (0000ms, 0626ms total)
T4F50 077:640 JLINK_IsHalted()  returns TRUE (0000ms, 0626ms total)
T4F50 077:640 JLINK_ReadReg(R15 (PC))  returns 0x08003050 (0000ms, 0626ms total)
T4F50 077:640 JLINK_ReadReg(XPSR)  returns 0x21000000 (0000ms, 0626ms total)
T4F50 077:640 JLINK_ClrBPEx(BPHandle = 0x00000004)  returns 0x00 (0000ms, 0626ms total)
T4F50 077:640 JLINK_ClrBPEx(BPHandle = 0x00000005)  returns 0x00 (0000ms, 0626ms total)
T4F50 077:640 JLINK_ReadMemU32(0xE000ED30, 0x0001 Items, ...) -- CPU_ReadMem(4 bytes @ 0xE000ED30) - Data: 03 00 00 00  returns 1 (0001ms, 0627ms total)
T4F50 077:641 JLINK_ReadMemU32(0xE0001028, 0x0001 Items, ...) -- CPU_ReadMem(4 bytes @ 0xE0001028) - Data: 00 00 00 00  returns 1 (0000ms, 0627ms total)
T4F50 077:641 JLINK_ReadMemU32(0xE0001038, 0x0001 Items, ...) -- CPU_ReadMem(4 bytes @ 0xE0001038) - Data: 00 02 00 00  returns 1 (0002ms, 0629ms total)
T4F50 077:643 JLINK_ReadMemU32(0xE0001048, 0x0001 Items, ...) -- CPU_ReadMem(4 bytes @ 0xE0001048) - Data: 00 00 00 00  returns 1 (0000ms, 0629ms total)
T4F50 077:643 JLINK_ReadMemU32(0xE0001058, 0x0001 Items, ...) -- CPU_ReadMem(4 bytes @ 0xE0001058) - Data: 00 00 00 00  returns 1 (0001ms, 0630ms total)
T4F50 077:644 JLINK_ReadReg(R0)  returns 0xC32207DF (0000ms, 0630ms total)
T4F50 077:644 JLINK_ReadReg(R1)  returns 0x61D812B0 (0000ms, 0630ms total)
T4F50 077:644 JLINK_ReadReg(R2)  returns 0x00000086 (0001ms, 0631ms total)
T4F50 077:645 JLINK_ReadReg(R3)  returns 0x80000000 (0000ms, 0631ms total)
T4F50 077:645 JLINK_ReadReg(R4)  returns 0xA5A5A5A5 (0000ms, 0631ms total)
T4F50 077:645 JLINK_ReadReg(R5)  returns 0xA5A5A5A5 (0000ms, 0631ms total)
T4F50 077:645 JLINK_ReadReg(R6)  returns 0xA5A5A5A5 (0000ms, 0631ms total)
T4F50 077:645 JLINK_ReadReg(R7)  returns 0xA5A5A5A5 (0000ms, 0631ms total)
T4F50 077:645 JLINK_ReadReg(R8)  returns 0xA5A5A5A5 (0000ms, 0631ms total)
T4F50 077:645 JLINK_ReadReg(R9)  returns 0xA5A5A5A5 (0000ms, 0631ms total)
T4F50 077:645 JLINK_ReadReg(R10)  returns 0xA5A5A5A5 (0000ms, 0631ms total)
T4F50 077:645 JLINK_ReadReg(R11)  returns 0xA5A5A5A5 (0000ms, 0631ms total)
T4F50 077:645 JLINK_ReadReg(R12)  returns 0x51AD374F (0000ms, 0631ms total)
T4F50 077:645 JLINK_ReadReg(R13 (SP))  returns 0x20001BA0 (0001ms, 0632ms total)
T4F50 077:646 JLINK_ReadReg(R14)  returns 0x08005313 (0000ms, 0632ms total)
T4F50 077:646 JLINK_ReadReg(R15 (PC))  returns 0x08003050 (0000ms, 0632ms total)
T4F50 077:646 JLINK_ReadReg(XPSR)  returns 0x21000000 (0000ms, 0632ms total)
T4F50 077:646 JLINK_ReadReg(MSP)  returns 0x200055F8 (0000ms, 0632ms total)
T4F50 077:646 JLINK_ReadReg(PSP)  returns 0x20001BA0 (0000ms, 0632ms total)
T4F50 077:646 JLINK_ReadReg(CFBP)  returns 0x06000000 (0000ms, 0632ms total)
T4F50 077:646 JLINK_ReadReg(FPSCR)  returns 0x80000010 (0005ms, 0637ms total)
T4F50 077:651 JLINK_ReadReg(FPS0)  returns 0x96D1C4F5 (0000ms, 0637ms total)
T4F50 077:651 JLINK_ReadReg(FPS1)  returns 0xC0069F41 (0001ms, 0638ms total)
T4F50 077:652 JLINK_ReadReg(FPS2)  returns 0x66666666 (0000ms, 0638ms total)
T4F50 077:652 JLINK_ReadReg(FPS3)  returns 0x404CA666 (0000ms, 0638ms total)
T4F50 077:652 JLINK_ReadReg(FPS4)  returns 0x54442D18 (0000ms, 0638ms total)
T4F50 077:652 JLINK_ReadReg(FPS5)  returns 0xC00921FB (0000ms, 0638ms total)
T4F50 077:652 JLINK_ReadReg(FPS6)  returns 0x3EC1157C (0000ms, 0638ms total)
T4F50 077:652 JLINK_ReadReg(FPS7)  returns 0xBF754C2A (0000ms, 0638ms total)
T4F50 077:652 JLINK_ReadReg(FPS8)  returns 0x3E89DCFD (0000ms, 0638ms total)
T4F50 077:652 JLINK_ReadReg(FPS9)  returns 0x00000000 (0000ms, 0638ms total)
T4F50 077:652 JLINK_ReadReg(FPS10)  returns 0x00000000 (0000ms, 0638ms total)
T4F50 077:652 JLINK_ReadReg(FPS11)  returns 0x00000000 (0000ms, 0638ms total)
T4F50 077:652 JLINK_ReadReg(FPS12)  returns 0x00000000 (0001ms, 0639ms total)
T4F50 077:653 JLINK_ReadReg(FPS13)  returns 0x00000000 (0000ms, 0639ms total)
T4F50 077:653 JLINK_ReadReg(FPS14)  returns 0x00000000 (0000ms, 0639ms total)
T4F50 077:653 JLINK_ReadReg(FPS15)  returns 0x00000000 (0000ms, 0639ms total)
T4F50 077:653 JLINK_ReadReg(FPS16)  returns 0x00000000 (0000ms, 0639ms total)
T4F50 077:653 JLINK_ReadReg(FPS17)  returns 0x00000000 (0000ms, 0639ms total)
T4F50 077:653 JLINK_ReadReg(FPS18)  returns 0x00000000 (0000ms, 0639ms total)
T4F50 077:653 JLINK_ReadReg(FPS19)  returns 0x00000000 (0000ms, 0639ms total)
T4F50 077:653 JLINK_ReadReg(FPS20)  returns 0x00000000 (0001ms, 0640ms total)
T4F50 077:654 JLINK_ReadReg(FPS21)  returns 0x00000000 (0000ms, 0640ms total)
T4F50 077:654 JLINK_ReadReg(FPS22)  returns 0x00000000 (0000ms, 0640ms total)
T4F50 077:654 JLINK_ReadReg(FPS23)  returns 0x00000000 (0000ms, 0640ms total)
T4F50 077:654 JLINK_ReadReg(FPS24)  returns 0x00000000 (0000ms, 0640ms total)
T4F50 077:654 JLINK_ReadReg(FPS25)  returns 0x00000000 (0000ms, 0640ms total)
T4F50 077:654 JLINK_ReadReg(FPS26)  returns 0x00000000 (0000ms, 0640ms total)
T4F50 077:654 JLINK_ReadReg(FPS27)  returns 0x00000000 (0000ms, 0640ms total)
T4F50 077:654 JLINK_ReadReg(FPS28)  returns 0x00000000 (0000ms, 0640ms total)
T4F50 077:654 JLINK_ReadReg(FPS29)  returns 0x00000000 (0000ms, 0640ms total)
T4F50 077:654 JLINK_ReadReg(FPS30)  returns 0x00000000 (0000ms, 0640ms total)
T4F50 077:655 JLINK_ReadReg(FPS31)  returns 0x00000000 (0000ms, 0641ms total)
T1B38 077:657 JLINK_ReadMem (0x00000000, 0x0004 Bytes, ...) -- CPU_ReadMem(4 bytes @ 0x40023844) -- CPU_ReadMem(4 bytes @ 0x40013800) -- CPU_ReadMem(64 bytes @ 0x08000000) -- Updating C cache (64 bytes @ 0x08000000) -- Read from C cache (4 bytes @ 0x08000000) - Data: 18 56 00 20  returns 0x00 (0003ms, 0644ms total)
T1B38 077:662 JLINK_ReadMemU32(0xE0001004, 0x0001 Items, ...) -- CPU_ReadMem(4 bytes @ 0xE0001004) - Data: 64 BC 74 05  returns 1 (0001ms, 0645ms total)
T1B38 077:664 JLINK_ReadMem (0x20000000, 0x0004 Bytes, ...) -- CPU_ReadMem(64 bytes @ 0x20000000) -- Updating C cache (64 bytes @ 0x20000000) -- Read from C cache (4 bytes @ 0x20000000) - Data: 00 00 00 00  returns 0x00 (0001ms, 0646ms total)
T1B38 077:665 JLINK_ReadMem (0x20000004, 0x0004 Bytes, ...) -- Read from C cache (4 bytes @ 0x20000004) - Data: 00 00 00 00  returns 0x00 (0000ms, 0646ms total)
T1B38 077:666 JLINK_ReadMem (0x20000008, 0x0004 Bytes, ...) -- Read from C cache (4 bytes @ 0x20000008) - Data: 00 00 00 00  returns 0x00 (0000ms, 0646ms total)
T1B38 077:666 JLINK_ReadMem (0x2000520C, 0x0004 Bytes, ...) -- CPU_ReadMem(64 bytes @ 0x20005200) -- Updating C cache (64 bytes @ 0x20005200) -- Read from C cache (4 bytes @ 0x2000520C) - Data: 00 00 00 00  returns 0x00 (0001ms, 0647ms total)
T1B38 077:667 JLINK_ReadMem (0x20005210, 0x0004 Bytes, ...) -- Read from C cache (4 bytes @ 0x20005210) - Data: 00 00 00 00  returns 0x00 (0000ms, 0647ms total)
T1B38 077:667 JLINK_ReadMem (0x20005214, 0x0004 Bytes, ...) -- Read from C cache (4 bytes @ 0x20005214) - Data: 00 00 00 00  returns 0x00 (0000ms, 0647ms total)
T1B38 077:673 JLINK_ReadMem (0x0800304C, 0x003C Bytes, ...) -- CPU_ReadMem(128 bytes @ 0x08003040) -- Updating C cache (128 bytes @ 0x08003040) -- Read from C cache (60 bytes @ 0x0800304C) - Data: 02 F0 B8 F8 05 20 02 F0 C1 FD F5 E7 2D ED 04 8B ...  returns 0x00 (0002ms, 0649ms total)
T4F50 081:287 JLINK_SetBPEx(Addr = 0x0800319E, Type = 0xFFFFFFF2)  returns 0x00000006 (0000ms, 0649ms total)
T4F50 081:287 JLINK_Go() -- CPU_WriteMem(4 bytes @ 0xE0002000) -- CPU_ReadMem(4 bytes @ 0xE0001000) -- CPU_WriteMem(4 bytes @ 0xE000200C) (0003ms, 0652ms total)
T4F50 081:391 JLINK_IsHalted()  returns TRUE (0003ms, 0655ms total)
T4F50 081:394 JLINK_Halt()  returns 0x00 (0000ms, 0652ms total)
T4F50 081:394 JLINK_IsHalted()  returns TRUE (0000ms, 0652ms total)
T4F50 081:394 JLINK_IsHalted()  returns TRUE (0000ms, 0652ms total)
T4F50 081:394 JLINK_IsHalted()  returns TRUE (0001ms, 0653ms total)
T4F50 081:395 JLINK_ReadReg(R15 (PC))  returns 0x0800319E (0000ms, 0652ms total)
T4F50 081:395 JLINK_ReadReg(XPSR)  returns 0x41000000 (0000ms, 0652ms total)
T4F50 081:395 JLINK_ClrBPEx(BPHandle = 0x00000006)  returns 0x00 (0000ms, 0652ms total)
T4F50 081:395 JLINK_ReadMemU32(0xE000ED30, 0x0001 Items, ...) -- CPU_ReadMem(4 bytes @ 0xE000ED30) - Data: 03 00 00 00  returns 1 (0001ms, 0653ms total)
T4F50 081:396 JLINK_ReadMemU32(0xE0001028, 0x0001 Items, ...) -- CPU_ReadMem(4 bytes @ 0xE0001028) - Data: 00 00 00 00  returns 1 (0000ms, 0653ms total)
T4F50 081:396 JLINK_ReadMemU32(0xE0001038, 0x0001 Items, ...) -- CPU_ReadMem(4 bytes @ 0xE0001038) - Data: 00 02 00 00  returns 1 (0001ms, 0654ms total)
T4F50 081:397 JLINK_ReadMemU32(0xE0001048, 0x0001 Items, ...) -- CPU_ReadMem(4 bytes @ 0xE0001048) - Data: 00 00 00 00  returns 1 (0001ms, 0655ms total)
T4F50 081:398 JLINK_ReadMemU32(0xE0001058, 0x0001 Items, ...) -- CPU_ReadMem(4 bytes @ 0xE0001058) - Data: 00 00 00 00  returns 1 (0001ms, 0656ms total)
T4F50 081:399 JLINK_ReadReg(R0)  returns 0x00000000 (0000ms, 0656ms total)
T4F50 081:399 JLINK_ReadReg(R1)  returns 0x00000180 (0000ms, 0656ms total)
T4F50 081:399 JLINK_ReadReg(R2)  returns 0x40000001 (0000ms, 0656ms total)
T4F50 081:399 JLINK_ReadReg(R3)  returns 0x00000180 (0000ms, 0656ms total)
T4F50 081:399 JLINK_ReadReg(R4)  returns 0x00000004 (0000ms, 0656ms total)
T4F50 081:399 JLINK_ReadReg(R5)  returns 0x20004E58 (0000ms, 0656ms total)
T4F50 081:399 JLINK_ReadReg(R6)  returns 0x200001EC (0000ms, 0656ms total)
T4F50 081:399 JLINK_ReadReg(R7)  returns 0x2000013C (0001ms, 0657ms total)
T4F50 081:400 JLINK_ReadReg(R8)  returns 0x20000000 (0000ms, 0657ms total)
T4F50 081:400 JLINK_ReadReg(R9)  returns 0xA5A5A5A5 (0000ms, 0657ms total)
T4F50 081:400 JLINK_ReadReg(R10)  returns 0xA5A5A5A5 (0000ms, 0657ms total)
T4F50 081:400 JLINK_ReadReg(R11)  returns 0xA5A5A5A5 (0000ms, 0657ms total)
T4F50 081:400 JLINK_ReadReg(R12)  returns 0x20004FF4 (0000ms, 0657ms total)
T4F50 081:400 JLINK_ReadReg(R13 (SP))  returns 0x20001918 (0000ms, 0657ms total)
T4F50 081:400 JLINK_ReadReg(R14)  returns 0x0800319F (0000ms, 0657ms total)
T4F50 081:400 JLINK_ReadReg(R15 (PC))  returns 0x0800319E (0000ms, 0657ms total)
T4F50 081:400 JLINK_ReadReg(XPSR)  returns 0x41000000 (0000ms, 0657ms total)
T4F50 081:400 JLINK_ReadReg(MSP)  returns 0x200055F8 (0000ms, 0657ms total)
T4F50 081:401 JLINK_ReadReg(PSP)  returns 0x20001918 (0000ms, 0657ms total)
T4F50 081:401 JLINK_ReadReg(CFBP)  returns 0x06000000 (0000ms, 0657ms total)
T4F50 081:401 JLINK_ReadReg(FPSCR)  returns 0x20000000 (0004ms, 0661ms total)
T4F50 081:405 JLINK_ReadReg(FPS0)  returns 0x00000000 (0000ms, 0661ms total)
T4F50 081:405 JLINK_ReadReg(FPS1)  returns 0x00000000 (0001ms, 0662ms total)
T4F50 081:406 JLINK_ReadReg(FPS2)  returns 0x00000000 (0000ms, 0662ms total)
T4F50 081:406 JLINK_ReadReg(FPS3)  returns 0x00000000 (0000ms, 0662ms total)
T4F50 081:406 JLINK_ReadReg(FPS4)  returns 0x00000000 (0000ms, 0662ms total)
T4F50 081:406 JLINK_ReadReg(FPS5)  returns 0xC00921FB (0000ms, 0662ms total)
T4F50 081:406 JLINK_ReadReg(FPS6)  returns 0x3F800000 (0000ms, 0662ms total)
T4F50 081:406 JLINK_ReadReg(FPS7)  returns 0x3E02E3FA (0000ms, 0662ms total)
T4F50 081:406 JLINK_ReadReg(FPS8)  returns 0x3E554430 (0000ms, 0662ms total)
T4F50 081:406 JLINK_ReadReg(FPS9)  returns 0x00000000 (0000ms, 0662ms total)
T4F50 081:406 JLINK_ReadReg(FPS10)  returns 0x00000000 (0000ms, 0662ms total)
T4F50 081:406 JLINK_ReadReg(FPS11)  returns 0x00000000 (0000ms, 0662ms total)
T4F50 081:406 JLINK_ReadReg(FPS12)  returns 0x00000000 (0001ms, 0663ms total)
T4F50 081:407 JLINK_ReadReg(FPS13)  returns 0x00000000 (0000ms, 0663ms total)
T4F50 081:407 JLINK_ReadReg(FPS14)  returns 0x00000000 (0000ms, 0663ms total)
T4F50 081:407 JLINK_ReadReg(FPS15)  returns 0x00000000 (0000ms, 0663ms total)
T4F50 081:407 JLINK_ReadReg(FPS16)  returns 0x42A03333 (0000ms, 0663ms total)
T4F50 081:407 JLINK_ReadReg(FPS17)  returns 0x40C00000 (0000ms, 0663ms total)
T4F50 081:407 JLINK_ReadReg(FPS18)  returns 0x4118C9EC (0000ms, 0663ms total)
T4F50 081:407 JLINK_ReadReg(FPS19)  returns 0x41980000 (0001ms, 0664ms total)
T4F50 081:408 JLINK_ReadReg(FPS20)  returns 0x00000000 (0000ms, 0664ms total)
T4F50 081:408 JLINK_ReadReg(FPS21)  returns 0x00000000 (0000ms, 0664ms total)
T4F50 081:408 JLINK_ReadReg(FPS22)  returns 0x00000000 (0000ms, 0664ms total)
T4F50 081:408 JLINK_ReadReg(FPS23)  returns 0x00000000 (0000ms, 0664ms total)
T4F50 081:408 JLINK_ReadReg(FPS24)  returns 0x00000000 (0000ms, 0664ms total)
T4F50 081:408 JLINK_ReadReg(FPS25)  returns 0x00000000 (0000ms, 0664ms total)
T4F50 081:408 JLINK_ReadReg(FPS26)  returns 0x00000000 (0000ms, 0664ms total)
T4F50 081:408 JLINK_ReadReg(FPS27)  returns 0x00000000 (0000ms, 0664ms total)
T4F50 081:408 JLINK_ReadReg(FPS28)  returns 0x00000000 (0000ms, 0664ms total)
T4F50 081:408 JLINK_ReadReg(FPS29)  returns 0x00000000 (0000ms, 0664ms total)
T4F50 081:408 JLINK_ReadReg(FPS30)  returns 0x00000000 (0001ms, 0665ms total)
T4F50 081:409 JLINK_ReadReg(FPS31)  returns 0x00000000 (0000ms, 0665ms total)
T1B38 081:412 JLINK_ReadMem (0x00000000, 0x0004 Bytes, ...) -- CPU_ReadMem(4 bytes @ 0x40023844) -- CPU_ReadMem(4 bytes @ 0x40013800) -- CPU_ReadMem(64 bytes @ 0x08000000) -- Updating C cache (64 bytes @ 0x08000000) -- Read from C cache (4 bytes @ 0x08000000) - Data: 18 56 00 20  returns 0x00 (0003ms, 0668ms total)
T1B38 081:418 JLINK_ReadMemU32(0xE0001004, 0x0001 Items, ...) -- CPU_ReadMem(4 bytes @ 0xE0001004) - Data: B5 85 82 05  returns 1 (0000ms, 0668ms total)
T1B38 081:419 JLINK_ReadMem (0x20000000, 0x0004 Bytes, ...) -- CPU_ReadMem(64 bytes @ 0x20000000) -- Updating C cache (64 bytes @ 0x20000000) -- Read from C cache (4 bytes @ 0x20000000) - Data: 00 00 00 00  returns 0x00 (0001ms, 0669ms total)
T1B38 081:420 JLINK_ReadMem (0x20000004, 0x0004 Bytes, ...) -- Read from C cache (4 bytes @ 0x20000004) - Data: 00 00 00 00  returns 0x00 (0001ms, 0670ms total)
T1B38 081:421 JLINK_ReadMem (0x20000008, 0x0004 Bytes, ...) -- Read from C cache (4 bytes @ 0x20000008) - Data: 00 00 00 00  returns 0x00 (0000ms, 0670ms total)
